#! /bin/sh

i2cset -f -y 7 0x68 0x12 0x84
echo value of 0x68 0x12
i2cget -f -y 7 0x68 0x12
sleep 0.19
echo value of 0x68 0x17
i2cget -f -y 7 0x68 0x17
i2cset -f -y 7 0x68 0x1B 0x10
echo value of 0x68 0x1B
i2cget -f -y 7 0x68 0x1B
i2cset -f -y 7 0x68 0x1C 0x00
echo value of 0x68 0x1C
i2cget -f -y 7 0x68 0x1C
i2cset -f -y 7 0x68 0x1D 0x09
echo value of 0x68 0x1D
i2cget -f -y 7 0x68 0x1D
i2cset -f -y 7 0x68 0x1A 0x01
echo value of 0x68 0x1A
i2cget -f -y 7 0x68 0x1A
i2cset -f -y 7 0x68 0x0F 0x7D
echo value of 0x68 0x0F
i2cget -f -y 7 0x68 0x0F
i2cset -f -y 7 0x68 0x12 0x81
echo value of 0x68 0x12
i2cget -f -y 7 0x68 0x12
sleep 0.01
i2cset -f -y 7 0x68 0x41 0x60
echo value of 0x68 0x41
i2cget -f -y 7 0x68 0x41
i2cset -f -y 7 0x68 0x09 0x01
echo value of 0x68 0x09
i2cget -f -y 7 0x68 0x09
i2cset -f -y 7 0x68 0x13 0x7D
echo value of 0x68 0x13
i2cget -f -y 7 0x68 0x13
sleep 0.32
echo value of 0x68 0x17
i2cget -f -y 7 0x68 0x17
i2cset -f -y 7 0x68 0x09 0x21
echo value of 0x68 0x09
i2cget -f -y 7 0x68 0x09
i2cset -f -y 7 0x68 0x01 0x00
echo value of 0x68 0x01
i2cget -f -y 7 0x68 0x01
echo value of 0x69 0x02
i2cget -f -y 7 0x69 0x02
echo value of 0x69 0x03
i2cget -f -y 7 0x69 0x03
echo value of 0x69 0x04
i2cget -f -y 7 0x69 0x04
i2cset -f -y 7 0x68 0x01 0x00
echo value of 0x68 0x01
i2cget -f -y 7 0x68 0x01
i2cset -f -y 7 0x69 0x0B 0x80
echo value of 0x69 0x0B
i2cget -f -y 7 0x69 0x0B
i2cset -f -y 7 0x69 0x0C 0x10
echo value of 0x69 0x0C
i2cget -f -y 7 0x69 0x0C
i2cset -f -y 7 0x69 0x41 0x22
echo value of 0x69 0x41
i2cget -f -y 7 0x69 0x41
i2cset -f -y 7 0x69 0x42 0x3B
echo value of 0x69 0x42
i2cget -f -y 7 0x69 0x42
i2cset -f -y 7 0x69 0x5A 0x81
echo value of 0x69 0x5A
i2cget -f -y 7 0x69 0x5A
i2cset -f -y 7 0x69 0x65 0xFF
echo value of 0x69 0x65
i2cget -f -y 7 0x69 0x65
i2cset -f -y 7 0x69 0x66 0xFF
echo value of 0x69 0x66
i2cget -f -y 7 0x69 0x66
i2cset -f -y 7 0x69 0x1B 0x10
echo value of 0x69 0x1B
i2cget -f -y 7 0x69 0x1B
i2cset -f -y 7 0x68 0x42 0x77
echo value of 0x68 0x42
i2cget -f -y 7 0x68 0x42
i2cset -f -y 7 0x68 0x0D 0x10
echo value of 0x68 0x0D
i2cget -f -y 7 0x68 0x0D
i2cset -f -y 7 0x68 0x0E 0x10
echo value of 0x68 0x0E
i2cget -f -y 7 0x68 0x0E
i2cset -f -y 7 0x68 0x09 0x01
echo value of 0x68 0x09
i2cget -f -y 7 0x68 0x09
i2cset -f -y 7 0x68 0x01 0x80
echo value of 0x68 0x01
i2cget -f -y 7 0x68 0x01
i2cset -f -y 7 0x68 0x01 0x00
echo value of 0x68 0x01
i2cget -f -y 7 0x68 0x01
i2cset -f -y 7 0x68 0x10 0x44
echo value of 0x68 0x10
i2cget -f -y 7 0x68 0x10
i2cset -f -y 7 0x68 0x11 0x23
echo value of 0x68 0x11
i2cget -f -y 7 0x68 0x11
i2cset -f -y 7 0x68 0x12 0x81
echo value of 0x68 0x12
i2cget -f -y 7 0x68 0x12
sleep 0.01
i2cset -f -y 7 0x68 0x01 0x00
echo value of 0x68 0x01
i2cget -f -y 7 0x68 0x01
i2cset -f -y 7 0x68 0x12 0x82
echo value of 0x68 0x12
i2cget -f -y 7 0x68 0x12